
T3548 000:002 SEGGER J-Link V6.16c Log File (0000ms, 0002ms total)
T3548 000:002 DLL Compiled: Jun 16 2017 18:14:49 (0000ms, 0002ms total)
T3548 000:002 Logging started @ 2019-03-11 20:19 (0000ms, 0002ms total)
T3548 000:002 JLINK_SetWarnOutHandler(...) (0000ms, 0002ms total)
T3548 000:002 JLINK_OpenEx(...)
Firmware: J-Link V9 compiled Jun  2 2222 22:22:22
Hardware: V9.00
S/N: 30000299
Feature(s): GDB, RDI, FlashBP, FlashDL, JFlash, RDDIWEBSRV Webserver running on local port 19080 (0014ms, 0016ms total)
T3548 000:002   returns O.K. (0014ms, 0016ms total)
T3548 000:016 JLINK_GetEmuCaps()  returns 0xB9FF7BBF (0000ms, 0016ms total)
T3548 000:016 JLINK_TIF_GetAvailable(...) (0000ms, 0016ms total)
T3548 000:016 JLINK_SetErrorOutHandler(...) (0000ms, 0016ms total)
T3548 000:016 JLINK_ExecCommand("ProjectFile = "C:\Users\Professor\Desktop\hero-CAN2\MDK-ARM\JLinkSettings.ini"", ...).   returns 0x00 (0081ms, 0097ms total)
T3548 000:097 JLINK_ExecCommand("Device = STM32F427IIHx", ...). Device "STM32F427II" selected.  returns 0x00 (0002ms, 0099ms total)
T3548 000:099 JLINK_ExecCommand("DisableConnectionTimeout", ...).   returns 0x01 (0000ms, 0099ms total)
T3548 000:099 JLINK_GetHardwareVersion()  returns 0x15F90 (0000ms, 0099ms total)
T3548 000:099 JLINK_GetDLLVersion()  returns 61603 (0000ms, 0099ms total)
T3548 000:099 JLINK_GetFirmwareString(...) (0000ms, 0099ms total)
T3548 000:099 JLINK_GetDLLVersion()  returns 61603 (0000ms, 0099ms total)
T3548 000:099 JLINK_GetCompileDateTime() (0000ms, 0099ms total)
T3548 000:099 JLINK_GetFirmwareString(...) (0000ms, 0099ms total)
T3548 000:099 JLINK_GetHardwareVersion()  returns 0x15F90 (0000ms, 0099ms total)
T3548 000:099 JLINK_TIF_Select(JLINKARM_TIF_SWD)  returns 0x00 (0001ms, 0100ms total)
T3548 000:100 JLINK_SetSpeed(5000) (0000ms, 0100ms total)
T3548 000:100 JLINK_GetId() >0x10B TIF>Found SW-DP with ID 0x2BA01477 >0x0D TIF> >0x28 TIF> >0x0D TIF> >0x28 TIF> >0x0D TIF> >0x28 TIF> >0x0D TIF> >0x28 TIF> >0x0D TIF> >0x21 TIF> >0x0D TIF> >0x28 TIF> >0x0D TIF> >0x28 TIF> >0x0D TIF> >0x28 TIF> >0x0D TIF> >0x21 TIF> >0x0D TIF> >0x21 TIF> >0x0D TIF> >0x28 TIF> >0x0D TIF> >0x21 TIF> >0x0D TIF> >0x21 TIF> >0x0D TIF> >0x28 TIF> >0x0D TIF> >0x21 TIF> >0x0D TIF> >0x21 TIF> >0x0D TIF> >0x28 TIF> >0x0D TIF> >0x21 TIF> >0x0D TIF> >0x21 TIF> >0x0D TIF> >0x28 TIF>
 >0x0D TIF> >0x21 TIF> >0x0D TIF> >0x21 TIF> >0x0D TIF> >0x28 TIF> >0x0D TIF> >0x21 TIF> >0x0D TIF> >0x21 TIF> >0x0D TIF> >0x28 TIF> >0x0D TIF> >0x21 TIF> >0x0D TIF> >0x21 TIF> >0x10B TIF>Found SW-DP with ID 0x2BA01477 >0x0D TIF> >0x28 TIF> >0x0D TIF> >0x28 TIF> >0x0D TIF> >0x28 TIF> >0x0D TIF> >0x28 TIF> >0x0D TIF> >0x21 TIF> >0x0D TIF> >0x28 TIF>Scanning APs, stopping at first AHB-AP found. >0x0D TIF> >0x28 TIF> >0x0D TIF> >0x21 TIF> >0x0D TIF> >0x21 TIF>AP[0] IDR: 0x24770011 (AHB-AP) >0x0D TIF>
 >0x28 TIF> >0x0D TIF> >0x21 TIF> >0x0D TIF> >0x21 TIF>AHB-AP ROM: 0xE00FF000 (Base addr. of first ROM table) >0x0D TIF> >0x28 TIF> >0x0D TIF> >0x28 TIF> >0x0D TIF> >0x28 TIF> >0x0D TIF> >0x21 TIF> >0x0D TIF> >0x21 TIF> >0x0D TIF> >0x28 TIF> >0x0D TIF> >0x21 TIF> >0x0D TIF> >0x21 TIF>CPUID reg: 0x410FC241. Implementer code: 0x41 (ARM)Found Cortex-M4 r0p1, Little endian. -- CPU_ReadMem(4 bytes @ 0xE000EDF0) -- CPU_WriteMem(4 bytes @ 0xE000EDF0) -- CPU_ReadMem(4 bytes @ 0xE0002000)
FPUnit: 6 code (BP) slots and 2 literal slots -- CPU_ReadMem(4 bytes @ 0xE000EDFC) -- CPU_WriteMem(4 bytes @ 0xE000EDFC) -- CPU_ReadMem(4 bytes @ 0xE0001000) -- CPU_WriteMem(4 bytes @ 0xE0001000) -- CPU_ReadMem(4 bytes @ 0xE000ED88) -- CPU_WriteMem(4 bytes @ 0xE000ED88) -- CPU_ReadMem(4 bytes @ 0xE000ED88) -- CPU_WriteMem(4 bytes @ 0xE000ED88)CoreSight components:ROMTbl[0] @ E00FF000 -- CPU_ReadMem(16 bytes @ 0xE00FF000) -- CPU_ReadMem(16 bytes @ 0xE000EFF0) -- CPU_ReadMem(16 bytes @ 0xE000EFE0)
ROMTbl[0][0]: E000E000, CID: B105E00D, PID: 000BB00C SCS -- CPU_ReadMem(16 bytes @ 0xE0001FF0) -- CPU_ReadMem(16 bytes @ 0xE0001FE0)ROMTbl[0][1]: E0001000, CID: B105E00D, PID: 003BB002 DWT -- CPU_ReadMem(16 bytes @ 0xE0002FF0) -- CPU_ReadMem(16 bytes @ 0xE0002FE0)ROMTbl[0][2]: E0002000, CID: B105E00D, PID: 002BB003 FPB -- CPU_ReadMem(16 bytes @ 0xE0000FF0) -- CPU_ReadMem(16 bytes @ 0xE0000FE0)ROMTbl[0][3]: E0000000, CID: B105E00D, PID: 003BB001 ITM -- CPU_ReadMem(16 bytes @ 0xE00FF010)
 -- CPU_ReadMem(16 bytes @ 0xE0040FF0) -- CPU_ReadMem(16 bytes @ 0xE0040FE0)ROMTbl[0][4]: E0040000, CID: B105900D, PID: 000BB9A1 TPIU -- CPU_ReadMem(16 bytes @ 0xE0041FF0) -- CPU_ReadMem(16 bytes @ 0xE0041FE0)ROMTbl[0][5]: E0041000, CID: B105900D, PID: 000BB925 ETM >0x0D TIF> >0x21 TIF>  returns 0x2BA01477 (0025ms, 0125ms total)
T3548 000:125 JLINK_GetDLLVersion()  returns 61603 (0000ms, 0125ms total)
T3548 000:125 JLINK_CORE_GetFound()  returns 0xE0000FF (0000ms, 0125ms total)
T3548 000:125 JLINK_GetDebugInfo(0x100 = JLINKARM_ROM_TABLE_ADDR_INDEX) -- Value=0xE00FF000  returns 0x00 (0000ms, 0125ms total)
T3548 000:125 JLINK_GetDebugInfo(0x100 = JLINKARM_ROM_TABLE_ADDR_INDEX) -- Value=0xE00FF000  returns 0x00 (0000ms, 0125ms total)
T3548 000:125 JLINK_GetDebugInfo(0x101 = JLINKARM_DEBUG_INFO_ETM_ADDR_INDEX) -- Value=0xE0041000  returns 0x00 (0000ms, 0125ms total)
T3548 000:125 JLINK_ReadMemEx(0xE0041FD0, 0x0020 Bytes, ..., Flags = 0x02000004) -- CPU_ReadMem(32 bytes @ 0xE0041FD0) - Data: 04 00 00 00 00 00 00 00 00 00 00 00 00 00 00 00 ...  returns 0x20 (0000ms, 0125ms total)
T3548 000:125 JLINK_GetDebugInfo(0x102 = JLINKARM_DEBUG_INFO_MTB_ADDR_INDEX) -- Value=0x00000000  returns 0x00 (0000ms, 0125ms total)
T3548 000:125 JLINK_GetDebugInfo(0x103 = JLINKARM_DEBUG_INFO_TPIU_ADDR_INDEX) -- Value=0xE0040000  returns 0x00 (0000ms, 0125ms total)
T3548 000:125 JLINK_GetDebugInfo(0x104 = JLINKARM_DEBUG_INFO_ITM_ADDR_INDEX) -- Value=0xE0000000  returns 0x00 (0000ms, 0125ms total)
T3548 000:125 JLINK_GetDebugInfo(0x105 = JLINKARM_DEBUG_INFO_DWT_ADDR_INDEX) -- Value=0xE0001000  returns 0x00 (0000ms, 0125ms total)
T3548 000:125 JLINK_GetDebugInfo(0x106 = JLINKARM_DEBUG_INFO_FPB_ADDR_INDEX) -- Value=0xE0002000  returns 0x00 (0000ms, 0125ms total)
T3548 000:125 JLINK_GetDebugInfo(0x107 = JLINKARM_DEBUG_INFO_NVIC_ADDR_INDEX) -- Value=0xE000E000  returns 0x00 (0000ms, 0125ms total)
T3548 000:125 JLINK_GetDebugInfo(0x10C = JLINKARM_DEBUG_INFO_DBG_ADDR_INDEX) -- Value=0xE000EDF0  returns 0x00 (0000ms, 0125ms total)
T3548 000:125 JLINK_ReadMemU32(0xE000EF40, 0x0001 Items, ...) -- CPU_ReadMem(4 bytes @ 0xE000EF40) - Data: 21 00 11 10  returns 0x01 (0000ms, 0125ms total)
T3548 000:125 JLINK_ReadMemU32(0xE000EF44, 0x0001 Items, ...) -- CPU_ReadMem(4 bytes @ 0xE000EF44) - Data: 11 00 00 11  returns 0x01 (0001ms, 0126ms total)
T3548 000:126 JLINK_ReadMemU32(0xE000ED00, 0x0001 Items, ...) -- CPU_ReadMem(4 bytes @ 0xE000ED00) - Data: 41 C2 0F 41  returns 0x01 (0000ms, 0126ms total)
T3548 000:126 JLINK_GetDebugInfo(0x10F = JLINKARM_DEBUG_INFO_HAS_CORTEX_M_SECURITY_EXT_INDEX) -- Value=0x00000000  returns 0x00 (0000ms, 0126ms total)
T3548 000:126 JLINK_SetResetType(JLINKARM_CM3_RESET_TYPE_NORMAL)  returns JLINKARM_CM3_RESET_TYPE_NORMAL (0000ms, 0126ms total)
T3548 000:126 JLINK_Reset() -- CPU is running -- CPU_WriteMem(4 bytes @ 0xE000EDF0) -- CPU is running -- CPU_WriteMem(4 bytes @ 0xE000EDFC) >0x35 TIF>Setting AIRCR.SYSRESETREQ -- CPU is running -- CPU_WriteMem(4 bytes @ 0xE000ED0C) >0x0D TIF> >0x28 TIF> -- CPU_ReadMem(4 bytes @ 0xE000ED0C) -- CPU_ReadMem(4 bytes @ 0xE000EDF0) -- CPU_ReadMem(4 bytes @ 0xE000EDF0) -- CPU_ReadMem(4 bytes @ 0xE000EDF0) -- CPU is running -- CPU_WriteMem(4 bytes @ 0xE000EDF0) -- CPU is running
 -- CPU_WriteMem(4 bytes @ 0xE000EDFC) -- CPU_ReadMem(4 bytes @ 0xE000EDF0) -- CPU_WriteMem(4 bytes @ 0xE0002000) -- CPU_ReadMem(4 bytes @ 0xE000EDFC) -- CPU_ReadMem(4 bytes @ 0xE0001000) (0066ms, 0192ms total)
T3548 000:193 JLINK_ReadReg(R15 (PC))  returns 0x080001C0 (0000ms, 0192ms total)
T3548 000:193 JLINK_ReadReg(XPSR)  returns 0x01000000 (0000ms, 0192ms total)
T3548 000:193 JLINK_Halt()  returns 0x00 (0000ms, 0192ms total)
T3548 000:193 JLINK_ReadMemU32(0xE000EDF0, 0x0001 Items, ...) -- CPU_ReadMem(4 bytes @ 0xE000EDF0) - Data: 03 00 03 00  returns 0x01 (0001ms, 0193ms total)
T3548 000:194 JLINK_WriteU32(0xE000EDF0, 0xA05F0003) -- CPU_WriteMem(4 bytes @ 0xE000EDF0)  returns 0x00 (0000ms, 0193ms total)
T3548 000:194 JLINK_WriteU32(0xE000EDFC, 0x01000000) -- CPU_WriteMem(4 bytes @ 0xE000EDFC)  returns 0x00 (0001ms, 0194ms total)
T3548 000:195 JLINK_GetHWStatus(...)  returns 0x00 (0000ms, 0194ms total)
T3548 000:195 JLINK_GetNumBPUnits(Type = 0xFFFFFF00)  returns 0x06 (0000ms, 0194ms total)
T3548 000:195 JLINK_GetNumBPUnits(Type = 0xF0)  returns 0x2000 (0000ms, 0194ms total)
T3548 000:195 JLINK_GetNumWPUnits()  returns 0x04 (0000ms, 0194ms total)
T3548 000:195 JLINK_GetSpeed()  returns 0xFA0 (0000ms, 0194ms total)
T3548 000:195 JLINK_ReadMemU32(0xE000E004, 0x0001 Items, ...) -- CPU_ReadMem(4 bytes @ 0xE000E004) - Data: 02 00 00 00  returns 0x01 (0001ms, 0195ms total)
T3548 000:196 JLINK_ReadMemU32(0xE000E004, 0x0001 Items, ...) -- CPU_ReadMem(4 bytes @ 0xE000E004) - Data: 02 00 00 00  returns 0x01 (0000ms, 0195ms total)
T3548 000:196 JLINK_WriteMemEx(0xE0001000, 0x001C Bytes, ..., Flags = 0x02000004) - Data: 01 00 00 00 00 00 00 00 00 00 00 00 00 00 00 00 ... -- CPU_WriteMem(28 bytes @ 0xE0001000)  returns 0x1C (0001ms, 0196ms total)
T3548 000:197 JLINK_ReadReg(R15 (PC))  returns 0x080001C0 (0001ms, 0197ms total)
T3548 000:198 JLINK_ReadReg(XPSR)  returns 0x01000000 (0000ms, 0197ms total)
T3548 000:300 JLINK_SetResetType(JLINKARM_CM3_RESET_TYPE_NORMAL)  returns JLINKARM_CM3_RESET_TYPE_NORMAL (0000ms, 0197ms total)
T3548 000:300 JLINK_Reset() -- CPU_WriteMem(4 bytes @ 0xE000EDF0) -- CPU_WriteMem(4 bytes @ 0xE000EDFC) >0x35 TIF>Setting AIRCR.SYSRESETREQ -- CPU_WriteMem(4 bytes @ 0xE000ED0C) >0x0D TIF> >0x28 TIF> -- CPU_ReadMem(4 bytes @ 0xE000ED0C) -- CPU_ReadMem(4 bytes @ 0xE000EDF0) -- CPU_ReadMem(4 bytes @ 0xE000EDF0) -- CPU_ReadMem(4 bytes @ 0xE000EDF0) -- CPU_WriteMem(4 bytes @ 0xE000EDF0) -- CPU_WriteMem(4 bytes @ 0xE000EDFC) -- CPU_ReadMem(4 bytes @ 0xE000EDF0) -- CPU_WriteMem(4 bytes @ 0xE0002000)
 -- CPU_ReadMem(4 bytes @ 0xE000EDFC) -- CPU_ReadMem(4 bytes @ 0xE0001000) (0064ms, 0261ms total)
T3548 000:365 JLINK_ReadReg(R15 (PC))  returns 0x080001C0 (0000ms, 0261ms total)
T3548 000:365 JLINK_ReadReg(XPSR)  returns 0x01000000 (0000ms, 0261ms total)
T3548 000:365 JLINK_ReadMemEx(0x080001AC, 0x003C Bytes, ..., Flags = 0x02000000) -- CPU_ReadMem(128 bytes @ 0x08000180) -- Updating C cache (128 bytes @ 0x08000180) -- Read from C cache (60 bytes @ 0x080001AC) - Data: DF F8 0C D0 00 F0 34 FB 00 48 00 47 AD 56 00 08 ...  returns 0x3C (0001ms, 0262ms total)
T3548 001:790 JLINK_ReadReg(R0)  returns 0x00000000 (0000ms, 0262ms total)
T3548 001:790 JLINK_ReadReg(R1)  returns 0x00000000 (0000ms, 0262ms total)
T3548 001:790 JLINK_ReadReg(R2)  returns 0x00000000 (0000ms, 0262ms total)
T3548 001:790 JLINK_ReadReg(R3)  returns 0x00000000 (0000ms, 0262ms total)
T3548 001:790 JLINK_ReadReg(R4)  returns 0x00000000 (0000ms, 0262ms total)
T3548 001:790 JLINK_ReadReg(R5)  returns 0x00000000 (0000ms, 0262ms total)
T3548 001:790 JLINK_ReadReg(R6)  returns 0x00000000 (0000ms, 0262ms total)
T3548 001:790 JLINK_ReadReg(R7)  returns 0x00000000 (0000ms, 0262ms total)
T3548 001:790 JLINK_ReadReg(R8)  returns 0x00000000 (0000ms, 0262ms total)
T3548 001:790 JLINK_ReadReg(R9)  returns 0x00000000 (0000ms, 0262ms total)
T3548 001:790 JLINK_ReadReg(R10)  returns 0x00000000 (0000ms, 0262ms total)
T3548 001:790 JLINK_ReadReg(R11)  returns 0x00000000 (0000ms, 0262ms total)
T3548 001:790 JLINK_ReadReg(R12)  returns 0x00000000 (0000ms, 0262ms total)
T3548 001:790 JLINK_ReadReg(R13 (SP))  returns 0x20000CF8 (0000ms, 0262ms total)
T3548 001:790 JLINK_ReadReg(R14)  returns 0xFFFFFFFF (0000ms, 0262ms total)
T3548 001:790 JLINK_ReadReg(R15 (PC))  returns 0x080001C0 (0000ms, 0262ms total)
T3548 001:790 JLINK_ReadReg(XPSR)  returns 0x01000000 (0000ms, 0262ms total)
T3548 001:790 JLINK_ReadReg(MSP)  returns 0x20000CF8 (0000ms, 0262ms total)
T3548 001:790 JLINK_ReadReg(PSP)  returns 0x00000000 (0000ms, 0262ms total)
T3548 001:790 JLINK_ReadReg(CFBP)  returns 0x00000000 (0000ms, 0262ms total)
T3548 001:790 JLINK_ReadReg(FPSCR)  returns 0x00000000 (0003ms, 0265ms total)
T3548 001:793 JLINK_ReadReg(FPS0)  returns 0x00000000 (0000ms, 0265ms total)
T3548 001:793 JLINK_ReadReg(FPS1)  returns 0x00000000 (0000ms, 0265ms total)
T3548 001:793 JLINK_ReadReg(FPS2)  returns 0x00000000 (0000ms, 0265ms total)
T3548 001:793 JLINK_ReadReg(FPS3)  returns 0x00000000 (0000ms, 0265ms total)
T3548 001:793 JLINK_ReadReg(FPS4)  returns 0x00000000 (0000ms, 0265ms total)
T3548 001:793 JLINK_ReadReg(FPS5)  returns 0x00000000 (0000ms, 0265ms total)
T3548 001:793 JLINK_ReadReg(FPS6)  returns 0x00000000 (0000ms, 0265ms total)
T3548 001:793 JLINK_ReadReg(FPS7)  returns 0x00000000 (0000ms, 0265ms total)
T3548 001:793 JLINK_ReadReg(FPS8)  returns 0x00000000 (0000ms, 0265ms total)
T3548 001:793 JLINK_ReadReg(FPS9)  returns 0x00000000 (0000ms, 0265ms total)
T3548 001:793 JLINK_ReadReg(FPS10)  returns 0x00000000 (0000ms, 0265ms total)
T3548 001:793 JLINK_ReadReg(FPS11)  returns 0x00000000 (0000ms, 0265ms total)
T3548 001:793 JLINK_ReadReg(FPS12)  returns 0x00000000 (0000ms, 0265ms total)
T3548 001:793 JLINK_ReadReg(FPS13)  returns 0x00000000 (0000ms, 0265ms total)
T3548 001:793 JLINK_ReadReg(FPS14)  returns 0x00000000 (0000ms, 0265ms total)
T3548 001:793 JLINK_ReadReg(FPS15)  returns 0x00000000 (0000ms, 0265ms total)
T3548 001:793 JLINK_ReadReg(FPS16)  returns 0x00000000 (0000ms, 0265ms total)
T3548 001:793 JLINK_ReadReg(FPS17)  returns 0x00000000 (0000ms, 0265ms total)
T3548 001:793 JLINK_ReadReg(FPS18)  returns 0x00000000 (0000ms, 0265ms total)
T3548 001:793 JLINK_ReadReg(FPS19)  returns 0x00000000 (0000ms, 0265ms total)
T3548 001:793 JLINK_ReadReg(FPS20)  returns 0x00000000 (0000ms, 0265ms total)
T3548 001:793 JLINK_ReadReg(FPS21)  returns 0x00000000 (0000ms, 0265ms total)
T3548 001:793 JLINK_ReadReg(FPS22)  returns 0x00000000 (0000ms, 0265ms total)
T3548 001:793 JLINK_ReadReg(FPS23)  returns 0x00000000 (0000ms, 0265ms total)
T3548 001:793 JLINK_ReadReg(FPS24)  returns 0x00000000 (0000ms, 0265ms total)
T3548 001:793 JLINK_ReadReg(FPS25)  returns 0x00000000 (0000ms, 0265ms total)
T3548 001:794 JLINK_ReadReg(FPS26)  returns 0x00000000 (0000ms, 0265ms total)
T3548 001:794 JLINK_ReadReg(FPS27)  returns 0x00000000 (0000ms, 0265ms total)
T3548 001:794 JLINK_ReadReg(FPS28)  returns 0x00000000 (0000ms, 0265ms total)
T3548 001:794 JLINK_ReadReg(FPS29)  returns 0x00000000 (0000ms, 0265ms total)
T3548 001:794 JLINK_ReadReg(FPS30)  returns 0x00000000 (0000ms, 0265ms total)
T3548 001:794 JLINK_ReadReg(FPS31)  returns 0x00000000 (0000ms, 0265ms total)
T3548 001:804 JLINK_ReadMemEx(0x20000028, 0x0002 Bytes, ..., Flags = 0x02000000) -- CPU_ReadMem(64 bytes @ 0x20000000) -- Updating C cache (64 bytes @ 0x20000000) -- Read from C cache (2 bytes @ 0x20000028) - Data: 30 F8  returns 0x02 (0001ms, 0266ms total)
T3548 001:821 JLINK_ReadMemEx(0x20000418, 0x0004 Bytes, ..., Flags = 0x02000000) -- CPU_ReadMem(64 bytes @ 0x20000400) -- Updating C cache (64 bytes @ 0x20000400) -- Read from C cache (4 bytes @ 0x20000418) - Data: 15 98 BD 3F  returns 0x04 (0001ms, 0267ms total)
T3548 001:827 JLINK_ReadMemEx(0x2000002C, 0x0004 Bytes, ..., Flags = 0x02000000) -- Read from C cache (4 bytes @ 0x2000002C) - Data: 7B 94 2D 3D  returns 0x04 (0000ms, 0267ms total)
T3548 001:832 JLINK_ReadMemEx(0x2000078E, 0x0002 Bytes, ..., Flags = 0x02000000) -- CPU_ReadMem(64 bytes @ 0x20000780) -- Updating C cache (64 bytes @ 0x20000780) -- Read from C cache (2 bytes @ 0x2000078E) - Data: 00 00  returns 0x02 (0001ms, 0268ms total)
T3548 001:840 JLINK_ReadMemEx(0x20000796, 0x0002 Bytes, ..., Flags = 0x02000000) -- Read from C cache (2 bytes @ 0x20000796) - Data: 00 00  returns 0x02 (0000ms, 0268ms total)
T3548 001:847 JLINK_ReadMemEx(0x2000079E, 0x0002 Bytes, ..., Flags = 0x02000000) -- Read from C cache (2 bytes @ 0x2000079E) - Data: 00 00  returns 0x02 (0000ms, 0268ms total)
T3548 001:856 JLINK_ReadMemEx(0x200007A6, 0x0002 Bytes, ..., Flags = 0x02000000) -- Read from C cache (2 bytes @ 0x200007A6) - Data: 00 00  returns 0x02 (0000ms, 0268ms total)
T3548 001:881 JLINK_ReadMemEx(0x20000740, 0x0004 Bytes, ..., Flags = 0x02000000) -- CPU_ReadMem(64 bytes @ 0x20000740) -- Updating C cache (64 bytes @ 0x20000740) -- Read from C cache (4 bytes @ 0x20000740) - Data: 00 00 C8 C2  returns 0x04 (0000ms, 0268ms total)
T1964 001:925 JLINK_ReadMemEx(0x080001C0, 0x0002 Bytes, ..., Flags = 0x02000000) -- Read from C cache (2 bytes @ 0x080001C0) - Data: 06 48  returns 0x02 (0000ms, 0268ms total)
T1964 001:925 JLINK_SetBPEx(Addr = 0x080056AC, Type = 0xFFFFFFF2)  returns 0x00000001 (0000ms, 0268ms total)
T1964 001:925 JLINK_SetBPEx(Addr = 0x08000BEE, Type = 0xFFFFFFF2)  returns 0x00000002 (0000ms, 0268ms total)
T1964 001:925 JLINK_Go() -- CPU_WriteMem(4 bytes @ 0xE0002000) -- CPU_WriteMem(4 bytes @ 0xE0002000) -- CPU_ReadMem(4 bytes @ 0xE0001000) -- CPU_WriteMem(4 bytes @ 0xE0002008) -- CPU_WriteMem(4 bytes @ 0xE000200C) -- CPU_WriteMem(4 bytes @ 0xE0002010) -- CPU_WriteMem(4 bytes @ 0xE0002014) -- CPU_WriteMem(4 bytes @ 0xE0002018) -- CPU_WriteMem(4 bytes @ 0xE000201C) -- CPU_WriteMem(4 bytes @ 0xE0001004) (0002ms, 0270ms total)
T1964 002:029 JLINK_IsHalted()  returns TRUE (0001ms, 0271ms total)
T1964 002:030 JLINK_Halt()  returns 0x00 (0000ms, 0270ms total)
T1964 002:030 JLINK_IsHalted()  returns TRUE (0000ms, 0270ms total)
T1964 002:031 JLINK_IsHalted()  returns TRUE (0000ms, 0270ms total)
T1964 002:031 JLINK_IsHalted()  returns TRUE (0000ms, 0270ms total)
T1964 002:031 JLINK_ReadReg(R15 (PC))  returns 0x080056AC (0000ms, 0270ms total)
T1964 002:031 JLINK_ReadReg(XPSR)  returns 0x61000000 (0000ms, 0270ms total)
T1964 002:031 JLINK_ClrBPEx(BPHandle = 0x00000001)  returns 0x00 (0000ms, 0270ms total)
T1964 002:031 JLINK_ClrBPEx(BPHandle = 0x00000002)  returns 0x00 (0000ms, 0270ms total)
T1964 002:031 JLINK_ReadMemU32(0xE000ED30, 0x0001 Items, ...) -- CPU_ReadMem(4 bytes @ 0xE000ED30) - Data: 02 00 00 00  returns 0x01 (0000ms, 0270ms total)
T1964 002:031 JLINK_ReadMemU32(0xE0001028, 0x0001 Items, ...) -- CPU_ReadMem(4 bytes @ 0xE0001028) - Data: 00 00 00 00  returns 0x01 (0000ms, 0270ms total)
T1964 002:031 JLINK_ReadMemU32(0xE0001038, 0x0001 Items, ...) -- CPU_ReadMem(4 bytes @ 0xE0001038) - Data: 00 02 00 00  returns 0x01 (0001ms, 0271ms total)
T1964 002:032 JLINK_ReadMemU32(0xE0001048, 0x0001 Items, ...) -- CPU_ReadMem(4 bytes @ 0xE0001048) - Data: 00 00 00 00  returns 0x01 (0000ms, 0271ms total)
T1964 002:032 JLINK_ReadMemU32(0xE0001058, 0x0001 Items, ...) -- CPU_ReadMem(4 bytes @ 0xE0001058) - Data: 00 00 00 00  returns 0x01 (0000ms, 0271ms total)
T1964 002:032 JLINK_ReadReg(R0)  returns 0x080056AD (0000ms, 0271ms total)
T1964 002:032 JLINK_ReadReg(R1)  returns 0x20000CF8 (0000ms, 0271ms total)
T1964 002:032 JLINK_ReadReg(R2)  returns 0x00000000 (0000ms, 0271ms total)
T1964 002:032 JLINK_ReadReg(R3)  returns 0x08005651 (0000ms, 0271ms total)
T1964 002:032 JLINK_ReadReg(R4)  returns 0x08005A80 (0000ms, 0271ms total)
T1964 002:032 JLINK_ReadReg(R5)  returns 0x08005A80 (0000ms, 0271ms total)
T1964 002:032 JLINK_ReadReg(R6)  returns 0x00000000 (0000ms, 0271ms total)
T1964 002:032 JLINK_ReadReg(R7)  returns 0x00000000 (0000ms, 0271ms total)
T1964 002:032 JLINK_ReadReg(R8)  returns 0x00000000 (0000ms, 0271ms total)
T1964 002:032 JLINK_ReadReg(R9)  returns 0x00000000 (0000ms, 0271ms total)
T1964 002:032 JLINK_ReadReg(R10)  returns 0x00000000 (0000ms, 0271ms total)
T1964 002:032 JLINK_ReadReg(R11)  returns 0x00000000 (0001ms, 0272ms total)
T1964 002:033 JLINK_ReadReg(R12)  returns 0x00000000 (0000ms, 0272ms total)
T1964 002:033 JLINK_ReadReg(R13 (SP))  returns 0x20000CF8 (0000ms, 0272ms total)
T1964 002:033 JLINK_ReadReg(R14)  returns 0x08000839 (0000ms, 0272ms total)
T1964 002:033 JLINK_ReadReg(R15 (PC))  returns 0x080056AC (0000ms, 0272ms total)
T1964 002:033 JLINK_ReadReg(XPSR)  returns 0x61000000 (0000ms, 0272ms total)
T1964 002:033 JLINK_ReadReg(MSP)  returns 0x20000CF8 (0000ms, 0272ms total)
T1964 002:033 JLINK_ReadReg(PSP)  returns 0x00000000 (0000ms, 0272ms total)
T1964 002:033 JLINK_ReadReg(CFBP)  returns 0x00000000 (0000ms, 0272ms total)
T1964 002:033 JLINK_ReadReg(FPSCR)  returns 0x00000000 (0003ms, 0275ms total)
T1964 002:036 JLINK_ReadReg(FPS0)  returns 0x00000000 (0000ms, 0275ms total)
T1964 002:036 JLINK_ReadReg(FPS1)  returns 0x00000000 (0000ms, 0275ms total)
T1964 002:036 JLINK_ReadReg(FPS2)  returns 0x00000000 (0000ms, 0275ms total)
T1964 002:036 JLINK_ReadReg(FPS3)  returns 0x00000000 (0000ms, 0275ms total)
T1964 002:036 JLINK_ReadReg(FPS4)  returns 0x00000000 (0000ms, 0275ms total)
T1964 002:036 JLINK_ReadReg(FPS5)  returns 0x00000000 (0000ms, 0275ms total)
T1964 002:036 JLINK_ReadReg(FPS6)  returns 0x00000000 (0000ms, 0275ms total)
T1964 002:036 JLINK_ReadReg(FPS7)  returns 0x00000000 (0000ms, 0275ms total)
T1964 002:036 JLINK_ReadReg(FPS8)  returns 0x00000000 (0000ms, 0275ms total)
T1964 002:036 JLINK_ReadReg(FPS9)  returns 0x00000000 (0000ms, 0275ms total)
T1964 002:036 JLINK_ReadReg(FPS10)  returns 0x00000000 (0000ms, 0275ms total)
T1964 002:036 JLINK_ReadReg(FPS11)  returns 0x00000000 (0000ms, 0275ms total)
T1964 002:036 JLINK_ReadReg(FPS12)  returns 0x00000000 (0000ms, 0275ms total)
T1964 002:036 JLINK_ReadReg(FPS13)  returns 0x00000000 (0000ms, 0275ms total)
T1964 002:036 JLINK_ReadReg(FPS14)  returns 0x00000000 (0000ms, 0275ms total)
T1964 002:036 JLINK_ReadReg(FPS15)  returns 0x00000000 (0000ms, 0275ms total)
T1964 002:036 JLINK_ReadReg(FPS16)  returns 0x00000000 (0000ms, 0275ms total)
T1964 002:036 JLINK_ReadReg(FPS17)  returns 0x00000000 (0000ms, 0275ms total)
T1964 002:036 JLINK_ReadReg(FPS18)  returns 0x00000000 (0000ms, 0275ms total)
T1964 002:036 JLINK_ReadReg(FPS19)  returns 0x00000000 (0000ms, 0275ms total)
T1964 002:036 JLINK_ReadReg(FPS20)  returns 0x00000000 (0000ms, 0275ms total)
T1964 002:036 JLINK_ReadReg(FPS21)  returns 0x00000000 (0000ms, 0275ms total)
T1964 002:036 JLINK_ReadReg(FPS22)  returns 0x00000000 (0000ms, 0275ms total)
T1964 002:036 JLINK_ReadReg(FPS23)  returns 0x00000000 (0000ms, 0275ms total)
T1964 002:036 JLINK_ReadReg(FPS24)  returns 0x00000000 (0000ms, 0275ms total)
T1964 002:036 JLINK_ReadReg(FPS25)  returns 0x00000000 (0000ms, 0275ms total)
T1964 002:036 JLINK_ReadReg(FPS26)  returns 0x00000000 (0000ms, 0275ms total)
T1964 002:036 JLINK_ReadReg(FPS27)  returns 0x00000000 (0000ms, 0275ms total)
T1964 002:036 JLINK_ReadReg(FPS28)  returns 0x00000000 (0000ms, 0275ms total)
T1964 002:036 JLINK_ReadReg(FPS29)  returns 0x00000000 (0000ms, 0275ms total)
T1964 002:036 JLINK_ReadReg(FPS30)  returns 0x00000000 (0000ms, 0275ms total)
T1964 002:036 JLINK_ReadReg(FPS31)  returns 0x00000000 (0000ms, 0275ms total)
T3548 002:039 JLINK_ReadMemEx(0x20000028, 0x0002 Bytes, ..., Flags = 0x02000000) -- CPU_ReadMem(64 bytes @ 0x20000000) -- Updating C cache (64 bytes @ 0x20000000) -- Read from C cache (2 bytes @ 0x20000028) - Data: 00 00  returns 0x02 (0000ms, 0275ms total)
T3548 002:041 JLINK_ReadMemEx(0x20000418, 0x0004 Bytes, ..., Flags = 0x02000000) -- CPU_ReadMem(64 bytes @ 0x20000400) -- Updating C cache (64 bytes @ 0x20000400) -- Read from C cache (4 bytes @ 0x20000418) - Data: 00 00 00 00  returns 0x04 (0001ms, 0276ms total)
T3548 002:042 JLINK_ReadMemEx(0x2000002C, 0x0004 Bytes, ..., Flags = 0x02000000) -- Read from C cache (4 bytes @ 0x2000002C) - Data: 00 00 00 00  returns 0x04 (0000ms, 0276ms total)
T3548 002:042 JLINK_ReadMemEx(0x2000078E, 0x0002 Bytes, ..., Flags = 0x02000000) -- CPU_ReadMem(64 bytes @ 0x20000780) -- Updating C cache (64 bytes @ 0x20000780) -- Read from C cache (2 bytes @ 0x2000078E) - Data: 00 00  returns 0x02 (0001ms, 0277ms total)
T3548 002:043 JLINK_ReadMemEx(0x20000796, 0x0002 Bytes, ..., Flags = 0x02000000) -- Read from C cache (2 bytes @ 0x20000796) - Data: 00 00  returns 0x02 (0000ms, 0277ms total)
T3548 002:043 JLINK_ReadMemEx(0x2000079E, 0x0002 Bytes, ..., Flags = 0x02000000) -- Read from C cache (2 bytes @ 0x2000079E) - Data: 00 00  returns 0x02 (0000ms, 0277ms total)
T3548 002:043 JLINK_ReadMemEx(0x200007A6, 0x0002 Bytes, ..., Flags = 0x02000000) -- Read from C cache (2 bytes @ 0x200007A6) - Data: 00 00  returns 0x02 (0000ms, 0277ms total)
T3548 002:045 JLINK_ReadMemEx(0x080055AC, 0x003C Bytes, ..., Flags = 0x02000000) -- CPU_ReadMem(128 bytes @ 0x08005580) -- Updating C cache (128 bytes @ 0x08005580) -- Read from C cache (60 bytes @ 0x080055AC) - Data: F3 FE 94 ED 06 1B 53 EC 11 2B FA F7 46 FE 53 EC ...  returns 0x3C (0001ms, 0278ms total)
T3548 002:046 JLINK_ReadMemEx(0x080055E8, 0x003C Bytes, ..., Flags = 0x02000000) -- CPU_ReadMem(64 bytes @ 0x08005600) -- Updating C cache (64 bytes @ 0x08005600) -- Read from C cache (60 bytes @ 0x080055E8) - Data: 2E FE 53 EC 18 2B FA F7 D1 FE 94 ED 00 1B 53 EC ...  returns 0x3C (0000ms, 0278ms total)
T3548 002:046 JLINK_ReadMemEx(0x08005624, 0x003C Bytes, ..., Flags = 0x02000000) -- CPU_ReadMem(64 bytes @ 0x08005640) -- Updating C cache (64 bytes @ 0x08005640) -- Read from C cache (60 bytes @ 0x08005624) - Data: 10 B5 53 EC 10 2B 51 EC 10 0B FA F7 B1 FE 41 EC ...  returns 0x3C (0002ms, 0280ms total)
T3548 002:048 JLINK_ReadMemEx(0x08005660, 0x003C Bytes, ..., Flags = 0x02000000) -- CPU_ReadMem(64 bytes @ 0x08005680) -- Updating C cache (64 bytes @ 0x08005680) -- Read from C cache (60 bytes @ 0x08005660) - Data: 70 B5 4F F0 E0 24 00 22 65 69 09 49 A3 69 09 78 ...  returns 0x3C (0000ms, 0280ms total)
T3548 002:048 JLINK_ReadMemEx(0x0800569C, 0x003C Bytes, ..., Flags = 0x02000000) -- CPU_ReadMem(64 bytes @ 0x080056C0) -- Updating C cache (64 bytes @ 0x080056C0) -- Read from C cache (60 bytes @ 0x0800569C) - Data: 00 40 01 90 9D ED 00 0B 02 B0 51 EC 10 0B 70 47 ...  returns 0x3C (0000ms, 0280ms total)
T3548 008:007 JLINK_ReadMemEx(0x08003C52, 0x0002 Bytes, ..., Flags = 0x02000000) -- CPU_ReadMem(64 bytes @ 0x08003C40) -- Updating C cache (64 bytes @ 0x08003C40) -- Read from C cache (2 bytes @ 0x08003C52) - Data: 41 60  returns 0x02 (0000ms, 0280ms total)
T3548 008:007 JLINK_ReadMemEx(0x08003C54, 0x003C Bytes, ..., Flags = 0x02000000) -- CPU_ReadMem(64 bytes @ 0x08003C80) -- Updating C cache (64 bytes @ 0x08003C80) -- Read from C cache (60 bytes @ 0x08003C54) - Data: 00 21 4F F4 00 32 81 60 C0 E9 03 12 52 01 42 61 ...  returns 0x3C (0001ms, 0281ms total)
T1964 016:358 JLINK_ReadMemEx(0x080056AC, 0x0002 Bytes, ..., Flags = 0x02000000) -- Read from C cache (2 bytes @ 0x080056AC) - Data: 2D ED  returns 0x02 (0000ms, 0281ms total)
T1964 016:358 JLINK_SetBPEx(Addr = 0x08000BEE, Type = 0xFFFFFFF2)  returns 0x00000003 (0000ms, 0281ms total)
T1964 016:358 JLINK_SetBPEx(Addr = 0x0800494A, Type = 0xFFFFFFF2)  returns 0x00000004 (0000ms, 0281ms total)
T1964 016:358 JLINK_Go() -- CPU_WriteMem(4 bytes @ 0xE0002000) -- CPU_WriteMem(4 bytes @ 0xE0002000) -- CPU_ReadMem(4 bytes @ 0xE0001000) -- CPU_WriteMem(4 bytes @ 0xE0002008) -- CPU_WriteMem(4 bytes @ 0xE000200C) (0002ms, 0283ms total)
T1964 016:461 JLINK_IsHalted()  returns FALSE (0000ms, 0283ms total)
T1964 016:561 JLINK_IsHalted()  returns FALSE (0001ms, 0284ms total)
T1964 016:663 JLINK_IsHalted()  returns FALSE (0001ms, 0284ms total)
T1964 016:764 JLINK_IsHalted()  returns FALSE (0000ms, 0283ms total)
T1964 016:866 JLINK_IsHalted()  returns FALSE (0001ms, 0284ms total)
T1964 016:967 JLINK_ReadMemU32(0xE0001004, 0x0001 Items, ...) -- CPU_ReadMem(4 bytes @ 0xE0001004) - Data: 86 70 81 06  returns 0x01 (0001ms, 0284ms total)
T3548 016:968 JLINK_ReadMemEx(0x20000028, 0x0002 Bytes, ..., Flags = 0x02000000) -- CPU_ReadMem(2 bytes @ 0x20000028) - Data: 30 F8  returns 0x02 (0001ms, 0285ms total)
T3548 016:971 JLINK_ReadMemEx(0x20000418, 0x0004 Bytes, ..., Flags = 0x02000000) -- CPU_ReadMem(4 bytes @ 0x20000418) - Data: 00 00 00 00  returns 0x04 (0000ms, 0285ms total)
T3548 016:972 JLINK_ReadMemEx(0x2000002C, 0x0004 Bytes, ..., Flags = 0x02000000) -- CPU_ReadMem(4 bytes @ 0x2000002C) - Data: 71 3D 4F 3D  returns 0x04 (0000ms, 0285ms total)
T3548 016:972 JLINK_ReadMemEx(0x2000078E, 0x0002 Bytes, ..., Flags = 0x02000000) -- CPU_ReadMem(2 bytes @ 0x2000078E) - Data: 00 00  returns 0x02 (0001ms, 0286ms total)
T3548 016:973 JLINK_ReadMemEx(0x20000796, 0x0002 Bytes, ..., Flags = 0x02000000) -- CPU_ReadMem(2 bytes @ 0x20000796) - Data: 00 00  returns 0x02 (0000ms, 0286ms total)
T3548 016:973 JLINK_ReadMemEx(0x2000079E, 0x0002 Bytes, ..., Flags = 0x02000000) -- CPU_ReadMem(2 bytes @ 0x2000079E) - Data: 00 00  returns 0x02 (0000ms, 0286ms total)
T3548 016:973 JLINK_ReadMemEx(0x200007A6, 0x0002 Bytes, ..., Flags = 0x02000000) -- CPU_ReadMem(2 bytes @ 0x200007A6) - Data: 00 00  returns 0x02 (0001ms, 0287ms total)
T1964 016:974 JLINK_IsHalted()  returns FALSE (0000ms, 0287ms total)
T1964 017:075 JLINK_IsHalted()  returns FALSE (0000ms, 0287ms total)
T1964 017:176 JLINK_IsHalted()  returns FALSE (0000ms, 0287ms total)
T1964 017:278 JLINK_IsHalted()  returns FALSE (0000ms, 0287ms total)
T1964 017:378 JLINK_IsHalted()  returns FALSE (0000ms, 0287ms total)
T1964 017:479 JLINK_ReadMemU32(0xE0001004, 0x0001 Items, ...) - Data: 86 70 81 06  returns 0x01 (0000ms, 0287ms total)
T3548 017:479 JLINK_ReadMemEx(0x20000028, 0x0002 Bytes, ..., Flags = 0x02000000) -- CPU_ReadMem(2 bytes @ 0x20000028) - Data: 30 F8  returns 0x02 (0001ms, 0288ms total)
T3548 017:481 JLINK_ReadMemEx(0x20000418, 0x0004 Bytes, ..., Flags = 0x02000000) -- CPU_ReadMem(4 bytes @ 0x20000418) - Data: 00 00 00 00  returns 0x04 (0001ms, 0289ms total)
T3548 017:482 JLINK_ReadMemEx(0x2000002C, 0x0004 Bytes, ..., Flags = 0x02000000) -- CPU_ReadMem(4 bytes @ 0x2000002C) - Data: 9A 99 4C 3D  returns 0x04 (0000ms, 0289ms total)
T3548 017:482 JLINK_ReadMemEx(0x2000078E, 0x0002 Bytes, ..., Flags = 0x02000000) -- CPU_ReadMem(2 bytes @ 0x2000078E) - Data: 00 00  returns 0x02 (0000ms, 0289ms total)
T3548 017:482 JLINK_ReadMemEx(0x20000796, 0x0002 Bytes, ..., Flags = 0x02000000) -- CPU_ReadMem(2 bytes @ 0x20000796) - Data: 00 00  returns 0x02 (0001ms, 0290ms total)
T3548 017:483 JLINK_ReadMemEx(0x2000079E, 0x0002 Bytes, ..., Flags = 0x02000000) -- CPU_ReadMem(2 bytes @ 0x2000079E) - Data: 00 00  returns 0x02 (0000ms, 0290ms total)
T3548 017:483 JLINK_ReadMemEx(0x200007A6, 0x0002 Bytes, ..., Flags = 0x02000000) -- CPU_ReadMem(2 bytes @ 0x200007A6) - Data: 00 00  returns 0x02 (0001ms, 0291ms total)
T1964 017:484 JLINK_IsHalted()  returns FALSE (0000ms, 0291ms total)
T1964 017:585 JLINK_IsHalted()  returns FALSE (0001ms, 0292ms total)
T1964 017:686 JLINK_IsHalted()  returns FALSE (0000ms, 0291ms total)
T1964 017:787 JLINK_IsHalted()  returns FALSE (0001ms, 0292ms total)
T1964 017:889 JLINK_IsHalted()  returns FALSE (0000ms, 0291ms total)
T1964 017:990 JLINK_ReadMemU32(0xE0001004, 0x0001 Items, ...) - Data: 86 70 81 06  returns 0x01 (0000ms, 0291ms total)
T3548 017:990 JLINK_ReadMemEx(0x20000028, 0x0002 Bytes, ..., Flags = 0x02000000) -- CPU_ReadMem(2 bytes @ 0x20000028) - Data: 30 F8  returns 0x02 (0000ms, 0291ms total)
T3548 017:990 JLINK_ReadMemEx(0x20000418, 0x0004 Bytes, ..., Flags = 0x02000000) -- CPU_ReadMem(4 bytes @ 0x20000418) - Data: 56 4B B8 3F  returns 0x04 (0001ms, 0292ms total)
T3548 017:991 JLINK_ReadMemEx(0x2000002C, 0x0004 Bytes, ..., Flags = 0x02000000) -- CPU_ReadMem(4 bytes @ 0x2000002C) - Data: A4 B0 81 3D  returns 0x04 (0001ms, 0293ms total)
T3548 017:992 JLINK_ReadMemEx(0x2000078E, 0x0002 Bytes, ..., Flags = 0x02000000) -- CPU_ReadMem(2 bytes @ 0x2000078E) - Data: 00 00  returns 0x02 (0001ms, 0294ms total)
T3548 017:993 JLINK_ReadMemEx(0x20000796, 0x0002 Bytes, ..., Flags = 0x02000000) -- CPU_ReadMem(2 bytes @ 0x20000796) - Data: 00 00  returns 0x02 (0000ms, 0294ms total)
T3548 017:993 JLINK_ReadMemEx(0x2000079E, 0x0002 Bytes, ..., Flags = 0x02000000) -- CPU_ReadMem(2 bytes @ 0x2000079E) - Data: 00 00  returns 0x02 (0001ms, 0295ms total)
T3548 017:994 JLINK_ReadMemEx(0x200007A6, 0x0002 Bytes, ..., Flags = 0x02000000) -- CPU_ReadMem(2 bytes @ 0x200007A6) - Data: 00 00  returns 0x02 (0000ms, 0295ms total)
T1964 017:994 JLINK_IsHalted()  returns FALSE (0001ms, 0296ms total)
T1964 018:096 JLINK_IsHalted()  returns FALSE (0000ms, 0295ms total)
T1964 018:197 JLINK_IsHalted()  returns FALSE (0000ms, 0295ms total)
T1964 018:298 JLINK_IsHalted()  returns FALSE (0000ms, 0295ms total)
T1964 018:399 JLINK_IsHalted()  returns FALSE (0000ms, 0295ms total)
T1964 018:501 JLINK_ReadMemU32(0xE0001004, 0x0001 Items, ...) - Data: 86 70 81 06  returns 0x01 (0000ms, 0295ms total)
T3548 018:501 JLINK_ReadMemEx(0x20000028, 0x0002 Bytes, ..., Flags = 0x02000000) -- CPU_ReadMem(2 bytes @ 0x20000028) - Data: 30 F8  returns 0x02 (0000ms, 0295ms total)
T3548 018:501 JLINK_ReadMemEx(0x20000418, 0x0004 Bytes, ..., Flags = 0x02000000) -- CPU_ReadMem(4 bytes @ 0x20000418) - Data: F6 C3 C2 3F  returns 0x04 (0001ms, 0296ms total)
T3548 018:502 JLINK_ReadMemEx(0x2000002C, 0x0004 Bytes, ..., Flags = 0x02000000) -- CPU_ReadMem(4 bytes @ 0x2000002C) - Data: 00 00 67 3D  returns 0x04 (0000ms, 0296ms total)
T3548 018:503 JLINK_ReadMemEx(0x2000078E, 0x0002 Bytes, ..., Flags = 0x02000000) -- CPU_ReadMem(2 bytes @ 0x2000078E) - Data: 00 00  returns 0x02 (0000ms, 0296ms total)
T3548 018:503 JLINK_ReadMemEx(0x20000796, 0x0002 Bytes, ..., Flags = 0x02000000) -- CPU_ReadMem(2 bytes @ 0x20000796) - Data: 00 00  returns 0x02 (0001ms, 0297ms total)
T3548 018:504 JLINK_ReadMemEx(0x2000079E, 0x0002 Bytes, ..., Flags = 0x02000000) -- CPU_ReadMem(2 bytes @ 0x2000079E) - Data: 00 00  returns 0x02 (0000ms, 0297ms total)
T3548 018:504 JLINK_ReadMemEx(0x200007A6, 0x0002 Bytes, ..., Flags = 0x02000000) -- CPU_ReadMem(2 bytes @ 0x200007A6) - Data: 00 00  returns 0x02 (0001ms, 0298ms total)
T1964 018:505 JLINK_IsHalted()  returns FALSE (0000ms, 0298ms total)
T1964 018:607 JLINK_IsHalted()  returns FALSE (0000ms, 0298ms total)
T1964 018:708 JLINK_IsHalted()  returns FALSE (0000ms, 0298ms total)
T1964 018:809 JLINK_IsHalted()  returns FALSE (0000ms, 0298ms total)
T1964 018:910 JLINK_IsHalted()  returns FALSE (0000ms, 0298ms total)
T1964 019:011 JLINK_IsHalted()  returns FALSE (0000ms, 0298ms total)
T1964 019:112 JLINK_ReadMemU32(0xE0001004, 0x0001 Items, ...) - Data: 86 70 81 06  returns 0x01 (0000ms, 0298ms total)
T3548 019:112 JLINK_ReadMemEx(0x20000028, 0x0002 Bytes, ..., Flags = 0x02000000) -- CPU_ReadMem(2 bytes @ 0x20000028) - Data: 30 F8  returns 0x02 (0001ms, 0299ms total)
T3548 019:113 JLINK_ReadMemEx(0x20000418, 0x0004 Bytes, ..., Flags = 0x02000000) -- CPU_ReadMem(4 bytes @ 0x20000418) - Data: 7E 42 B8 3F  returns 0x04 (0001ms, 0300ms total)
T3548 019:114 JLINK_ReadMemEx(0x2000002C, 0x0004 Bytes, ..., Flags = 0x02000000) -- CPU_ReadMem(4 bytes @ 0x2000002C) - Data: AE 47 4B 3D  returns 0x04 (0001ms, 0301ms total)
T3548 019:115 JLINK_ReadMemEx(0x2000078E, 0x0002 Bytes, ..., Flags = 0x02000000) -- CPU_ReadMem(2 bytes @ 0x2000078E) - Data: 00 00  returns 0x02 (0001ms, 0302ms total)
T3548 019:116 JLINK_ReadMemEx(0x20000796, 0x0002 Bytes, ..., Flags = 0x02000000) -- CPU_ReadMem(2 bytes @ 0x20000796) - Data: 00 00  returns 0x02 (0000ms, 0302ms total)
T3548 019:116 JLINK_ReadMemEx(0x2000079E, 0x0002 Bytes, ..., Flags = 0x02000000) -- CPU_ReadMem(2 bytes @ 0x2000079E) - Data: 00 00  returns 0x02 (0002ms, 0304ms total)
T3548 019:118 JLINK_ReadMemEx(0x200007A6, 0x0002 Bytes, ..., Flags = 0x02000000) -- CPU_ReadMem(2 bytes @ 0x200007A6) - Data: 00 00  returns 0x02 (0000ms, 0304ms total)
T1964 019:118 JLINK_IsHalted()  returns FALSE (0001ms, 0305ms total)
T1964 019:220 JLINK_IsHalted()  returns FALSE (0000ms, 0304ms total)
T1964 019:320 JLINK_IsHalted()  returns TRUE (0003ms, 0307ms total)
T1964 019:323 JLINK_Halt()  returns 0x00 (0000ms, 0304ms total)
T1964 019:323 JLINK_IsHalted()  returns TRUE (0000ms, 0304ms total)
T1964 019:323 JLINK_IsHalted()  returns TRUE (0000ms, 0304ms total)
T1964 019:323 JLINK_IsHalted()  returns TRUE (0000ms, 0304ms total)
T1964 019:323 JLINK_ReadReg(R15 (PC))  returns 0x08000BEE (0000ms, 0304ms total)
T1964 019:323 JLINK_ReadReg(XPSR)  returns 0x01000050 (0000ms, 0304ms total)
T1964 019:323 JLINK_ClrBPEx(BPHandle = 0x00000003)  returns 0x00 (0000ms, 0304ms total)
T1964 019:323 JLINK_ClrBPEx(BPHandle = 0x00000004)  returns 0x00 (0000ms, 0304ms total)
T1964 019:323 JLINK_ReadMemU32(0xE000ED30, 0x0001 Items, ...) -- CPU_ReadMem(4 bytes @ 0xE000ED30) - Data: 02 00 00 00  returns 0x01 (0000ms, 0304ms total)
T1964 019:323 JLINK_ReadMemU32(0xE0001028, 0x0001 Items, ...) -- CPU_ReadMem(4 bytes @ 0xE0001028) - Data: 00 00 00 00  returns 0x01 (0001ms, 0305ms total)
T1964 019:324 JLINK_ReadMemU32(0xE0001038, 0x0001 Items, ...) -- CPU_ReadMem(4 bytes @ 0xE0001038) - Data: 00 02 00 00  returns 0x01 (0000ms, 0305ms total)
T1964 019:324 JLINK_ReadMemU32(0xE0001048, 0x0001 Items, ...) -- CPU_ReadMem(4 bytes @ 0xE0001048) - Data: 00 00 00 00  returns 0x01 (0001ms, 0306ms total)
T1964 019:325 JLINK_ReadMemU32(0xE0001058, 0x0001 Items, ...) -- CPU_ReadMem(4 bytes @ 0xE0001058) - Data: 00 00 00 00  returns 0x01 (0000ms, 0306ms total)
T1964 019:325 JLINK_ReadReg(R0)  returns 0x00000B46 (0000ms, 0306ms total)
T1964 019:325 JLINK_ReadReg(R1)  returns 0x00000080 (0000ms, 0306ms total)
T1964 019:325 JLINK_ReadReg(R2)  returns 0x00000000 (0000ms, 0306ms total)
T1964 019:325 JLINK_ReadReg(R3)  returns 0x00000B3B (0000ms, 0306ms total)
T1964 019:325 JLINK_ReadReg(R4)  returns 0x2000023C (0000ms, 0306ms total)
T1964 019:325 JLINK_ReadReg(R5)  returns 0x00001388 (0000ms, 0306ms total)
T1964 019:325 JLINK_ReadReg(R6)  returns 0x00000080 (0000ms, 0306ms total)
T1964 019:325 JLINK_ReadReg(R7)  returns 0x00000000 (0000ms, 0306ms total)
T1964 019:325 JLINK_ReadReg(R8)  returns 0x00000B3B (0000ms, 0306ms total)
T1964 019:325 JLINK_ReadReg(R9)  returns 0x00000B3B (0000ms, 0306ms total)
T1964 019:325 JLINK_ReadReg(R10)  returns 0x0000079E (0000ms, 0306ms total)
T1964 019:325 JLINK_ReadReg(R11)  returns 0x00000000 (0000ms, 0306ms total)
T1964 019:325 JLINK_ReadReg(R12)  returns 0x0C000000 (0000ms, 0306ms total)
T1964 019:325 JLINK_ReadReg(R13 (SP))  returns 0x20000C10 (0000ms, 0306ms total)
T1964 019:325 JLINK_ReadReg(R14)  returns 0xFFFFFFE9 (0000ms, 0306ms total)
T1964 019:325 JLINK_ReadReg(R15 (PC))  returns 0x08000BEE (0000ms, 0306ms total)
T1964 019:325 JLINK_ReadReg(XPSR)  returns 0x01000050 (0000ms, 0306ms total)
T1964 019:325 JLINK_ReadReg(MSP)  returns 0x20000C10 (0000ms, 0306ms total)
T1964 019:325 JLINK_ReadReg(PSP)  returns 0x00000000 (0000ms, 0306ms total)
T1964 019:325 JLINK_ReadReg(CFBP)  returns 0x00000000 (0000ms, 0306ms total)
T1964 019:325 JLINK_ReadReg(FPSCR)  returns 0x00000000 (0004ms, 0310ms total)
T1964 019:329 JLINK_ReadReg(FPS0)  returns 0x3D626148 (0000ms, 0310ms total)
T1964 019:329 JLINK_ReadReg(FPS1)  returns 0x00000000 (0000ms, 0310ms total)
T1964 019:329 JLINK_ReadReg(FPS2)  returns 0x00000000 (0000ms, 0310ms total)
T1964 019:329 JLINK_ReadReg(FPS3)  returns 0x447A0000 (0000ms, 0310ms total)
T1964 019:329 JLINK_ReadReg(FPS4)  returns 0x44E10000 (0000ms, 0310ms total)
T1964 019:329 JLINK_ReadReg(FPS5)  returns 0x00000000 (0000ms, 0310ms total)
T1964 019:329 JLINK_ReadReg(FPS6)  returns 0x453B8000 (0000ms, 0310ms total)
T1964 019:329 JLINK_ReadReg(FPS7)  returns 0x447A0000 (0000ms, 0310ms total)
T1964 019:329 JLINK_ReadReg(FPS8)  returns 0x3DCCCCCD (0000ms, 0310ms total)
T1964 019:329 JLINK_ReadReg(FPS9)  returns 0x00000000 (0000ms, 0310ms total)
T1964 019:329 JLINK_ReadReg(FPS10)  returns 0x00000000 (0000ms, 0310ms total)
T1964 019:329 JLINK_ReadReg(FPS11)  returns 0x00000000 (0000ms, 0310ms total)
T1964 019:329 JLINK_ReadReg(FPS12)  returns 0x00000000 (0000ms, 0310ms total)
T1964 019:329 JLINK_ReadReg(FPS13)  returns 0x00000000 (0000ms, 0310ms total)
T1964 019:329 JLINK_ReadReg(FPS14)  returns 0x00000000 (0000ms, 0310ms total)
T1964 019:329 JLINK_ReadReg(FPS15)  returns 0x00000000 (0000ms, 0310ms total)
T1964 019:329 JLINK_ReadReg(FPS16)  returns 0x00000000 (0000ms, 0310ms total)
T1964 019:329 JLINK_ReadReg(FPS17)  returns 0x42480000 (0000ms, 0310ms total)
T1964 019:329 JLINK_ReadReg(FPS18)  returns 0x3F800000 (0000ms, 0310ms total)
T1964 019:329 JLINK_ReadReg(FPS19)  returns 0x00000000 (0000ms, 0310ms total)
T1964 019:329 JLINK_ReadReg(FPS20)  returns 0x00000000 (0000ms, 0310ms total)
T1964 019:329 JLINK_ReadReg(FPS21)  returns 0x00000000 (0000ms, 0310ms total)
T1964 019:329 JLINK_ReadReg(FPS22)  returns 0x00000000 (0000ms, 0310ms total)
T1964 019:329 JLINK_ReadReg(FPS23)  returns 0x00000000 (0000ms, 0310ms total)
T1964 019:329 JLINK_ReadReg(FPS24)  returns 0x00000000 (0000ms, 0310ms total)
T1964 019:329 JLINK_ReadReg(FPS25)  returns 0x00000000 (0001ms, 0311ms total)
T1964 019:330 JLINK_ReadReg(FPS26)  returns 0x00000000 (0000ms, 0311ms total)
T1964 019:330 JLINK_ReadReg(FPS27)  returns 0x00000000 (0000ms, 0311ms total)
T1964 019:330 JLINK_ReadReg(FPS28)  returns 0x00000000 (0000ms, 0311ms total)
T1964 019:330 JLINK_ReadReg(FPS29)  returns 0x00000000 (0000ms, 0311ms total)
T1964 019:330 JLINK_ReadReg(FPS30)  returns 0x00000000 (0000ms, 0311ms total)
T1964 019:330 JLINK_ReadReg(FPS31)  returns 0x00000000 (0000ms, 0311ms total)
T3548 019:334 JLINK_ReadMemEx(0x20000C14, 0x0004 Bytes, ..., Flags = 0x02000000) -- CPU_ReadMem(64 bytes @ 0x20000C00) -- Updating C cache (64 bytes @ 0x20000C00) -- Read from C cache (4 bytes @ 0x20000C14) - Data: E9 FF FF FF  returns 0x04 (0001ms, 0312ms total)
T3548 019:335 JLINK_ReadMemEx(0x20000C30, 0x0004 Bytes, ..., Flags = 0x02000000) -- Read from C cache (4 bytes @ 0x20000C30) - Data: D0 20 00 08  returns 0x04 (0000ms, 0312ms total)
T3548 019:335 JLINK_ReadMemEx(0x20000C34, 0x0004 Bytes, ..., Flags = 0x02000000) -- Read from C cache (4 bytes @ 0x20000C34) - Data: 00 00 00 01  returns 0x04 (0000ms, 0312ms total)
T3548 019:335 JLINK_ReadMemEx(0x20000C2C, 0x0004 Bytes, ..., Flags = 0x02000000) -- Read from C cache (4 bytes @ 0x20000C2C) - Data: 4D 4F 00 08  returns 0x04 (0000ms, 0312ms total)
T3548 019:335 JLINK_ReadMemEx(0xE000ED28, 0x0004 Bytes, ..., Flags = 0x02000000) -- CPU_ReadMem(4 bytes @ 0xE000ED28) - Data: 00 00 00 00  returns 0x04 (0000ms, 0312ms total)
T3548 019:335 JLINK_ReadMemEx(0x20000C7C, 0x0004 Bytes, ..., Flags = 0x02000000) -- CPU_ReadMem(64 bytes @ 0x20000C40) -- Updating C cache (64 bytes @ 0x20000C40) -- Read from C cache (4 bytes @ 0x20000C7C) - Data: A5 57 00 08  returns 0x04 (0001ms, 0313ms total)
T3548 019:336 JLINK_ReadMemEx(0x20000C80, 0x0004 Bytes, ..., Flags = 0x02000000) -- CPU_ReadMem(64 bytes @ 0x20000C80) -- Updating C cache (64 bytes @ 0x20000C80) -- Read from C cache (4 bytes @ 0x20000C80) - Data: 3C 02 00 20  returns 0x04 (0000ms, 0313ms total)
T3548 019:338 JLINK_ReadMemEx(0x20000028, 0x0002 Bytes, ..., Flags = 0x02000000) -- CPU_ReadMem(64 bytes @ 0x20000000) -- Updating C cache (64 bytes @ 0x20000000) -- Read from C cache (2 bytes @ 0x20000028) - Data: 30 F8  returns 0x02 (0000ms, 0313ms total)
T3548 019:339 JLINK_ReadMemEx(0x20000418, 0x0004 Bytes, ..., Flags = 0x02000000) -- CPU_ReadMem(64 bytes @ 0x20000400) -- Updating C cache (64 bytes @ 0x20000400) -- Read from C cache (4 bytes @ 0x20000418) - Data: 70 83 BD 3F  returns 0x04 (0001ms, 0314ms total)
T3548 019:340 JLINK_ReadMemEx(0x2000002C, 0x0004 Bytes, ..., Flags = 0x02000000) -- Read from C cache (4 bytes @ 0x2000002C) - Data: 48 61 62 3D  returns 0x04 (0000ms, 0314ms total)
T3548 019:340 JLINK_ReadMemEx(0x2000078E, 0x0002 Bytes, ..., Flags = 0x02000000) -- CPU_ReadMem(64 bytes @ 0x20000780) -- Updating C cache (64 bytes @ 0x20000780) -- Read from C cache (2 bytes @ 0x2000078E) - Data: 00 00  returns 0x02 (0001ms, 0315ms total)
T3548 019:341 JLINK_ReadMemEx(0x20000796, 0x0002 Bytes, ..., Flags = 0x02000000) -- Read from C cache (2 bytes @ 0x20000796) - Data: 00 00  returns 0x02 (0000ms, 0315ms total)
T3548 019:341 JLINK_ReadMemEx(0x2000079E, 0x0002 Bytes, ..., Flags = 0x02000000) -- Read from C cache (2 bytes @ 0x2000079E) - Data: 00 00  returns 0x02 (0000ms, 0315ms total)
T3548 019:341 JLINK_ReadMemEx(0x200007A6, 0x0002 Bytes, ..., Flags = 0x02000000) -- Read from C cache (2 bytes @ 0x200007A6) - Data: 00 00  returns 0x02 (0000ms, 0315ms total)
T3548 019:345 JLINK_ReadMemEx(0x08000BEC, 0x0014 Bytes, ..., Flags = 0x02000000) -- CPU_ReadMem(64 bytes @ 0x08000BC0) -- Updating C cache (64 bytes @ 0x08000BC0) -- Read from C cache (20 bytes @ 0x08000BEC) - Data: 10 B5 08 4B 08 4A 00 21 08 48 00 F0 30 FD 05 4A ...  returns 0x14 (0000ms, 0315ms total)
T3548 019:345 JLINK_ReadMemEx(0x08000C00, 0x0028 Bytes, ..., Flags = 0x02000000) -- CPU_ReadMem(64 bytes @ 0x08000C00) -- Updating C cache (64 bytes @ 0x08000C00) -- Read from C cache (40 bytes @ 0x08000C00) - Data: 00 F0 12 F8 BD E8 10 40 03 48 00 F0 A3 BD 00 00 ...  returns 0x28 (0001ms, 0316ms total)
T1964 049:358 JLINK_ReadMemEx(0x08000BEE, 0x0002 Bytes, ..., Flags = 0x02000000) -- Read from C cache (2 bytes @ 0x08000BEE) - Data: 08 4B  returns 0x02 (0000ms, 0316ms total)
T1964 049:358 JLINK_Step() -- Read from C cache (2 bytes @ 0x08000BEE) -- CPU_ReadMem(4 bytes @ 0xE000ED18) -- CPU_WriteMem(4 bytes @ 0xE000ED18) -- CPU_ReadMem(4 bytes @ 0xE000ED18) -- CPU_WriteMem(4 bytes @ 0xE000ED18) -- Read from C cache (4 bytes @ 0x08000C10) -- Simulated  returns 0x00 (0002ms, 0318ms total)
T1964 049:360 JLINK_ReadReg(R15 (PC))  returns 0x08000BF0 (0000ms, 0318ms total)
T1964 049:360 JLINK_ReadReg(XPSR)  returns 0x01000050 (0000ms, 0318ms total)
T1964 049:360 JLINK_SetBPEx(Addr = 0x08000BEE, Type = 0xFFFFFFF2)  returns 0x00000005 (0000ms, 0318ms total)
T1964 049:360 JLINK_SetBPEx(Addr = 0x0800494A, Type = 0xFFFFFFF2)  returns 0x00000006 (0000ms, 0318ms total)
T1964 049:360 JLINK_Go() -- CPU_WriteMem(4 bytes @ 0xE0002000) -- CPU_WriteMem(4 bytes @ 0xE0002000) -- CPU_ReadMem(4 bytes @ 0xE0001000) -- CPU_WriteMem(4 bytes @ 0xE0001004) (0001ms, 0319ms total)
T1964 049:462 JLINK_IsHalted()  returns TRUE (0002ms, 0321ms total)
T1964 049:464 JLINK_Halt()  returns 0x00 (0000ms, 0319ms total)
T1964 049:464 JLINK_IsHalted()  returns TRUE (0000ms, 0319ms total)
T1964 049:464 JLINK_IsHalted()  returns TRUE (0000ms, 0319ms total)
T1964 049:464 JLINK_IsHalted()  returns TRUE (0000ms, 0319ms total)
T1964 049:464 JLINK_ReadReg(R15 (PC))  returns 0x08000BEE (0000ms, 0319ms total)
T1964 049:464 JLINK_ReadReg(XPSR)  returns 0x61000050 (0000ms, 0319ms total)
T1964 049:464 JLINK_ClrBPEx(BPHandle = 0x00000005)  returns 0x00 (0000ms, 0319ms total)
T1964 049:464 JLINK_ClrBPEx(BPHandle = 0x00000006)  returns 0x00 (0000ms, 0319ms total)
T1964 049:464 JLINK_ReadMemU32(0xE000ED30, 0x0001 Items, ...) -- CPU_ReadMem(4 bytes @ 0xE000ED30) - Data: 02 00 00 00  returns 0x01 (0000ms, 0319ms total)
T1964 049:464 JLINK_ReadMemU32(0xE0001028, 0x0001 Items, ...) -- CPU_ReadMem(4 bytes @ 0xE0001028) - Data: 00 00 00 00  returns 0x01 (0002ms, 0321ms total)
T1964 049:466 JLINK_ReadMemU32(0xE0001038, 0x0001 Items, ...) -- CPU_ReadMem(4 bytes @ 0xE0001038) - Data: 00 02 00 00  returns 0x01 (0000ms, 0321ms total)
T1964 049:466 JLINK_ReadMemU32(0xE0001048, 0x0001 Items, ...) -- CPU_ReadMem(4 bytes @ 0xE0001048) - Data: 00 00 00 00  returns 0x01 (0001ms, 0322ms total)
T1964 049:467 JLINK_ReadMemU32(0xE0001058, 0x0001 Items, ...) -- CPU_ReadMem(4 bytes @ 0xE0001058) - Data: 00 00 00 00  returns 0x01 (0000ms, 0322ms total)
T1964 049:467 JLINK_ReadReg(R0)  returns 0x00020000 (0000ms, 0322ms total)
T1964 049:467 JLINK_ReadReg(R1)  returns 0x00000000 (0000ms, 0322ms total)
T1964 049:467 JLINK_ReadReg(R2)  returns 0x0000FDC9 (0000ms, 0322ms total)
T1964 049:467 JLINK_ReadReg(R3)  returns 0x00001000 (0000ms, 0322ms total)
T1964 049:467 JLINK_ReadReg(R4)  returns 0x2000023C (0000ms, 0322ms total)
T1964 049:467 JLINK_ReadReg(R5)  returns 0x00001388 (0000ms, 0322ms total)
T1964 049:467 JLINK_ReadReg(R6)  returns 0x00000080 (0000ms, 0322ms total)
T1964 049:467 JLINK_ReadReg(R7)  returns 0x00000000 (0000ms, 0322ms total)
T1964 049:467 JLINK_ReadReg(R8)  returns 0x00000B3B (0000ms, 0322ms total)
T1964 049:467 JLINK_ReadReg(R9)  returns 0x00000B3B (0000ms, 0322ms total)
T1964 049:467 JLINK_ReadReg(R10)  returns 0x0000079E (0000ms, 0322ms total)
T1964 049:467 JLINK_ReadReg(R11)  returns 0x00000000 (0000ms, 0322ms total)
T1964 049:467 JLINK_ReadReg(R12)  returns 0x0AE48963 (0000ms, 0322ms total)
T1964 049:467 JLINK_ReadReg(R13 (SP))  returns 0x20000C10 (0000ms, 0322ms total)
T1964 049:467 JLINK_ReadReg(R14)  returns 0xFFFFFFE9 (0000ms, 0322ms total)
T1964 049:467 JLINK_ReadReg(R15 (PC))  returns 0x08000BEE (0000ms, 0322ms total)
T1964 049:467 JLINK_ReadReg(XPSR)  returns 0x61000050 (0000ms, 0322ms total)
T1964 049:467 JLINK_ReadReg(MSP)  returns 0x20000C10 (0000ms, 0322ms total)
T1964 049:467 JLINK_ReadReg(PSP)  returns 0x00000000 (0000ms, 0322ms total)
T1964 049:467 JLINK_ReadReg(CFBP)  returns 0x00000000 (0000ms, 0322ms total)
T1964 049:467 JLINK_ReadReg(FPSCR)  returns 0x20000010 (0003ms, 0325ms total)
T1964 049:470 JLINK_ReadReg(FPS0)  returns 0x00000000 (0000ms, 0325ms total)
T1964 049:470 JLINK_ReadReg(FPS1)  returns 0xC238CA8D (0000ms, 0325ms total)
T1964 049:470 JLINK_ReadReg(FPS2)  returns 0x4038BF96 (0000ms, 0325ms total)
T1964 049:470 JLINK_ReadReg(FPS3)  returns 0x3F99999A (0000ms, 0325ms total)
T1964 049:470 JLINK_ReadReg(FPS4)  returns 0xC244C46B (0000ms, 0325ms total)
T1964 049:470 JLINK_ReadReg(FPS5)  returns 0xC519B974 (0000ms, 0325ms total)
T1964 049:470 JLINK_ReadReg(FPS6)  returns 0xC61C4000 (0000ms, 0325ms total)
T1964 049:470 JLINK_ReadReg(FPS7)  returns 0x447A0000 (0000ms, 0325ms total)
T1964 049:470 JLINK_ReadReg(FPS8)  returns 0x3DCCCCCD (0000ms, 0325ms total)
T1964 049:470 JLINK_ReadReg(FPS9)  returns 0x00000000 (0000ms, 0325ms total)
T1964 049:470 JLINK_ReadReg(FPS10)  returns 0x00000000 (0000ms, 0325ms total)
T1964 049:470 JLINK_ReadReg(FPS11)  returns 0x00000000 (0000ms, 0325ms total)
T1964 049:470 JLINK_ReadReg(FPS12)  returns 0x00000000 (0000ms, 0325ms total)
T1964 049:470 JLINK_ReadReg(FPS13)  returns 0x00000000 (0000ms, 0325ms total)
